T0AEC 000:010.550   SEGGER J-Link V8.54 Log File
T0AEC 000:011.124   DLL Compiled: Jul 23 2025 12:15:33
T0AEC 000:011.129   Logging started @ 2025-09-28 10:02
T0AEC 000:011.132   Process: D:\Keil_V5.14\UV4\UV4.exe
T0AEC 000:011.483 - 11.136ms 
T0AEC 000:011.610 JLINK_SetWarnOutHandler(...)
T0AEC 000:011.614 - 0.117ms 
T0AEC 000:011.621 JLINK_OpenEx(...)
T0AEC 000:018.234   Firmware: J-Link V9 compiled Dec  8 2023 20:16:22
T0AEC 000:019.391   Firmware: J-Link V9 compiled Dec  8 2023 20:16:22
T0AEC 000:020.262   Decompressing FW timestamp took 595 us
T0AEC 000:026.435   Hardware: V9.70
T0AEC 000:026.448   S/N: 602712382
T0AEC 000:026.455   OEM: SEGGER
T0AEC 000:026.460   Feature(s): GDB, RDI, FlashBP, FlashDL, JFlash
T0AEC 000:027.455   Bootloader: (FW returned invalid version)
T0AEC 000:028.154   TELNET listener socket opened on port 19021
T0AEC 000:028.425   WEBSRV WEBSRV_Init(): Starting webserver thread(s)
T0AEC 000:028.516   WEBSRV Webserver running on local port 19080
T0AEC 000:028.618   Looking for J-Link GUI Server exe at: D:\Keil_V5.14\ARM\Segger\JLinkGUIServer.exe
T0AEC 000:028.685   Looking for J-Link GUI Server exe at: D:\J_Link_Driver\JLink_V854\JLinkGUIServer.exe
T0AEC 000:028.735   Forking J-Link GUI Server: D:\J_Link_Driver\JLink_V854\JLinkGUIServer.exe
T0AEC 000:264.175   J-Link GUI Server info: "J-Link GUI server V8.54 "
T0AEC 000:281.571 - 269.755ms returns "O.K."
T0AEC 000:281.642 JLINK_GetEmuCaps()
T0AEC 000:281.661 - 0.014ms returns 0xB9FF7BBF
T0AEC 000:281.693 JLINK_TIF_GetAvailable(...)
T0AEC 000:281.975 - 0.284ms 
T0AEC 000:282.025 JLINK_SetErrorOutHandler(...)
T0AEC 000:282.036 - 0.012ms 
T0AEC 000:282.499 JLINK_ExecCommand("ProjectFile = "C:\Users\Administrator\Desktop\450\mycobot_450pro\APP_TEst\JLinkSettings.ini"", ...). 
T0AEC 000:312.912   Ref file found at: D:\Keil_V5.14\ARM\Segger\JLinkDevices.ref
T0AEC 000:313.015   REF file references invalid XML file: D:\J_Link_Driver\JLink_V854\JLinkDevices.xml
T0AEC 000:313.937 - 31.448ms returns 0x00
T0AEC 000:315.628 JLINK_ExecCommand("Device = STM32F103C8", ...). 
T0AEC 000:323.241   Device "STM32F103C8" selected.
T0AEC 000:323.612 - 7.973ms returns 0x00
T0AEC 000:323.623 JLINK_ExecCommand("DisableConnectionTimeout", ...). 
T0AEC 000:323.803   ERROR: Unknown command
T0AEC 000:323.809 - 0.181ms returns 0x01
T0AEC 000:323.814 JLINK_GetHardwareVersion()
T0AEC 000:323.817 - 0.003ms returns 97000
T0AEC 000:323.822 JLINK_GetDLLVersion()
T0AEC 000:323.825 - 0.003ms returns 85400
T0AEC 000:323.828 JLINK_GetOEMString(...)
T0AEC 000:323.832 JLINK_GetFirmwareString(...)
T0AEC 000:323.836 - 0.003ms 
T0AEC 000:337.264 JLINK_GetDLLVersion()
T0AEC 000:337.284 - 0.020ms returns 85400
T0AEC 000:337.288 JLINK_GetCompileDateTime()
T0AEC 000:337.292 - 0.003ms 
T0AEC 000:340.483 JLINK_GetFirmwareString(...)
T0AEC 000:340.509 - 0.025ms 
T0AEC 000:342.720 JLINK_GetHardwareVersion()
T0AEC 000:342.733 - 0.012ms returns 97000
T0AEC 000:344.667 JLINK_GetSN()
T0AEC 000:344.678 - 0.010ms returns 602712382
T0AEC 000:346.559 JLINK_GetOEMString(...)
T0AEC 000:354.698 JLINK_TIF_Select(JLINKARM_TIF_SWD)
T0AEC 000:355.433 - 0.947ms returns 0x00
T0AEC 000:355.444 JLINK_HasError()
T0AEC 000:355.458 JLINK_SetSpeed(5000)
T0AEC 000:355.543 - 0.086ms 
T0AEC 000:355.556 JLINK_GetId()
T0AEC 000:359.923   InitTarget() start
T0AEC 000:359.963    J-Link Script File: Executing InitTarget()
T0AEC 000:367.963   SWD selected. Executing JTAG -> SWD switching sequence.
T0AEC 000:374.502   DAP initialized successfully.
T0AEC 000:384.549   InitTarget() end - Took 18.6ms
T0AEC 000:387.224   Found SW-DP with ID 0x1BA01477
T0AEC 000:391.609   DPIDR: 0x1BA01477
T0AEC 000:394.459   CoreSight SoC-400 or earlier
T0AEC 000:399.325   Scanning AP map to find all available APs
T0AEC 000:403.116   AP[1]: Stopped AP scan as end of AP map has been reached
T0AEC 000:405.956   AP[0]: AHB-AP (IDR: 0x14770011, ADDR: 0x00000000)
T0AEC 000:408.491   Iterating through AP map to find AHB-AP to use
T0AEC 000:411.464   AP[0]: Core found
T0AEC 000:413.649   AP[0]: AHB-AP ROM base: 0xE00FF000
T0AEC 000:416.424   CPUID register: 0x411FC231. Implementer code: 0x41 (ARM)
T0AEC 000:418.606   Found Cortex-M3 r1p1, Little endian.
T0AEC 000:418.973   -- Max. mem block: 0x00010C20
T0AEC 000:419.324   CPU_ReadMem(4 bytes @ 0xE000EDF0)
T0AEC 000:419.555   CPU_ReadMem(4 bytes @ 0xE0002000)
T0AEC 000:421.804   FPUnit: 6 code (BP) slots and 2 literal slots
T0AEC 000:421.818   CPU_ReadMem(4 bytes @ 0xE000EDFC)
T0AEC 000:422.031   CPU_WriteMem(4 bytes @ 0xE000EDFC)
T0AEC 000:422.245   CPU_ReadMem(4 bytes @ 0xE0001000)
T0AEC 000:422.432   CPU_WriteMem(4 bytes @ 0xE0001000)
T0AEC 000:422.688   CPU_ReadMem(4 bytes @ 0xE000ED88)
T0AEC 000:422.972   CPU_WriteMem(4 bytes @ 0xE000ED88)
T0AEC 000:423.223   CPU_ReadMem(4 bytes @ 0xE000ED88)
T0AEC 000:423.470   CPU_WriteMem(4 bytes @ 0xE000ED88)
T0AEC 000:431.985   CoreSight components:
T0AEC 000:434.324   ROMTbl[0] @ E00FF000
T0AEC 000:434.346   CPU_ReadMem(64 bytes @ 0xE00FF000)
T0AEC 000:434.952   CPU_ReadMem(32 bytes @ 0xE000EFE0)
T0AEC 000:437.679   [0][0]: E000E000 CID B105E00D PID 001BB000 SCS
T0AEC 000:437.693   CPU_ReadMem(32 bytes @ 0xE0001FE0)
T0AEC 000:440.052   [0][1]: E0001000 CID B105E00D PID 001BB002 DWT
T0AEC 000:440.065   CPU_ReadMem(32 bytes @ 0xE0002FE0)
T0AEC 000:446.953   [0][2]: E0002000 CID B105E00D PID 000BB003 FPB
T0AEC 000:446.983   CPU_ReadMem(32 bytes @ 0xE0000FE0)
T0AEC 000:449.515   [0][3]: E0000000 CID B105E00D PID 001BB001 ITM
T0AEC 000:449.532   CPU_ReadMem(32 bytes @ 0xE0040FE0)
T0AEC 000:452.166   [0][4]: E0040000 CID B105900D PID 001BB923 TPIU-Lite
T0AEC 000:452.689 - 97.132ms returns 0x1BA01477
T0AEC 000:452.744 JLINK_GetDLLVersion()
T0AEC 000:452.748 - 0.004ms returns 85400
T0AEC 000:452.752 JLINK_CORE_GetFound()
T0AEC 000:452.756 - 0.003ms returns 0x30000FF
T0AEC 000:452.761 JLINK_GetDebugInfo(0x100 = JLINKARM_ROM_TABLE_ADDR_INDEX)
T0AEC 000:452.766   Value=0xE00FF000
T0AEC 000:452.770 - 0.010ms returns 0
T0AEC 000:454.843 JLINK_GetDebugInfo(0x100 = JLINKARM_ROM_TABLE_ADDR_INDEX)
T0AEC 000:454.855   Value=0xE00FF000
T0AEC 000:454.860 - 0.017ms returns 0
T0AEC 000:454.864 JLINK_GetDebugInfo(0x101 = JLINKARM_DEBUG_INFO_ETM_ADDR_INDEX)
T0AEC 000:454.867   Value=0x00000000
T0AEC 000:454.872 - 0.007ms returns 0
T0AEC 000:454.876 JLINK_ReadMemEx(0xE0041FF0, 0x10 Bytes, Flags = 0x02000004)
T0AEC 000:455.063   CPU_ReadMem(16 bytes @ 0xE0041FF0)
T0AEC 000:455.383   Data:  00 00 00 00 00 00 00 00 00 00 00 00 00 00 00 00
T0AEC 000:455.391 - 0.514ms returns 16 (0x10)
T0AEC 000:455.397 JLINK_GetDebugInfo(0x102 = JLINKARM_DEBUG_INFO_MTB_ADDR_INDEX)
T0AEC 000:455.400   Value=0x00000000
T0AEC 000:455.404 - 0.008ms returns 0
T0AEC 000:455.408 JLINK_GetDebugInfo(0x103 = JLINKARM_DEBUG_INFO_TPIU_ADDR_INDEX)
T0AEC 000:455.416   Value=0xE0040000
T0AEC 000:455.420 - 0.012ms returns 0
T0AEC 000:455.424 JLINK_GetDebugInfo(0x104 = JLINKARM_DEBUG_INFO_ITM_ADDR_INDEX)
T0AEC 000:455.427   Value=0xE0000000
T0AEC 000:455.432 - 0.007ms returns 0
T0AEC 000:455.435 JLINK_GetDebugInfo(0x105 = JLINKARM_DEBUG_INFO_DWT_ADDR_INDEX)
T0AEC 000:455.438   Value=0xE0001000
T0AEC 000:455.443 - 0.007ms returns 0
T0AEC 000:455.447 JLINK_GetDebugInfo(0x106 = JLINKARM_DEBUG_INFO_FPB_ADDR_INDEX)
T0AEC 000:455.450   Value=0xE0002000
T0AEC 000:455.454 - 0.007ms returns 0
T0AEC 000:455.458 JLINK_GetDebugInfo(0x107 = JLINKARM_DEBUG_INFO_NVIC_ADDR_INDEX)
T0AEC 000:455.461   Value=0xE000E000
T0AEC 000:455.465 - 0.007ms returns 0
T0AEC 000:455.469 JLINK_GetDebugInfo(0x10C = JLINKARM_DEBUG_INFO_DBG_ADDR_INDEX)
T0AEC 000:455.472   Value=0xE000EDF0
T0AEC 000:455.476 - 0.007ms returns 0
T0AEC 000:455.480 JLINK_GetDebugInfo(0x01 = Unknown)
T0AEC 000:455.483   Value=0x00000000
T0AEC 000:455.487 - 0.007ms returns 0
T0AEC 000:455.491 JLINK_ReadMemU32(0xE000ED00, 0x1 Items)
T0AEC 000:455.502   CPU_ReadMem(4 bytes @ 0xE000ED00)
T0AEC 000:455.857   Data:  31 C2 1F 41
T0AEC 000:455.872   Debug reg: CPUID
T0AEC 000:455.876 - 0.385ms returns 1 (0x1)
T0AEC 000:455.881 JLINK_GetDebugInfo(0x10F = JLINKARM_DEBUG_INFO_HAS_CORTEX_M_SECURITY_EXT_INDEX)
T0AEC 000:455.886   Value=0x00000000
T0AEC 000:455.892 - 0.011ms returns 0
T0AEC 000:455.897 JLINK_HasError()
T0AEC 000:455.901 JLINK_SetResetType(JLINKARM_CM3_RESET_TYPE_NORMAL)
T0AEC 000:455.905 - 0.003ms returns JLINKARM_CM3_RESET_TYPE_NORMAL
T0AEC 000:455.908 JLINK_Reset()
T0AEC 000:455.914   JLINK_GetResetTypeDesc
T0AEC 000:455.918   - 0.003ms 
T0AEC 000:462.768   Reset type: NORMAL (https://wiki.segger.com/J-Link_Reset_Strategies)
T0AEC 000:462.820   CPU is running
T0AEC 000:462.830   CPU_WriteMem(4 bytes @ 0xE000EDF0)
T0AEC 000:463.161   CPU is running
T0AEC 000:463.168   CPU_WriteMem(4 bytes @ 0xE000EDFC)
T0AEC 000:466.111   Reset: Halt core after reset via DEMCR.VC_CORERESET.
T0AEC 000:468.620   Reset: Reset device via AIRCR.SYSRESETREQ.
T0AEC 000:468.638   CPU is running
T0AEC 000:468.648   CPU_WriteMem(4 bytes @ 0xE000ED0C)
T0AEC 000:522.062   CPU_ReadMem(4 bytes @ 0xE000EDF0)
T0AEC 000:522.330   CPU_ReadMem(4 bytes @ 0xE000EDF0)
T0AEC 000:524.481   CPU_WriteMem(4 bytes @ 0xE000EDFC)
T0AEC 000:530.797   CPU_ReadMem(4 bytes @ 0xE000EDF0)
T0AEC 000:533.118   CPU_WriteMem(4 bytes @ 0xE0002000)
T0AEC 000:533.421   CPU_ReadMem(4 bytes @ 0xE000EDFC)
T0AEC 000:533.741   CPU_ReadMem(4 bytes @ 0xE0001000)
T0AEC 000:534.115 - 78.204ms 
T0AEC 000:534.284 JLINK_Halt()
T0AEC 000:534.303 - 0.018ms returns 0x00
T0AEC 000:534.320 JLINK_ReadMemU32(0xE000EDF0, 0x1 Items)
T0AEC 000:534.349   CPU_ReadMem(4 bytes @ 0xE000EDF0)
T0AEC 000:534.629   Data:  03 00 03 00
T0AEC 000:534.649   Debug reg: DHCSR
T0AEC 000:534.669 - 0.349ms returns 1 (0x1)
T0AEC 000:534.687 JLINK_WriteU32(0xE000EDF0, 0xA05F0003)
T0AEC 000:534.699   Debug reg: DHCSR
T0AEC 000:535.230   CPU_WriteMem(4 bytes @ 0xE000EDF0)
T0AEC 000:535.517 - 0.830ms returns 0 (0x00000000)
T0AEC 000:535.532 JLINK_WriteU32(0xE000EDFC, 0x01000000)
T0AEC 000:535.536   Debug reg: DEMCR
T0AEC 000:535.545   CPU_WriteMem(4 bytes @ 0xE000EDFC)
T0AEC 000:535.847 - 0.314ms returns 0 (0x00000000)
T0AEC 000:551.563 JLINK_GetHWStatus(...)
T0AEC 000:551.761 - 0.197ms returns 0
T0AEC 000:558.439 JLINK_GetNumBPUnits(Type = 0xFFFFFF00)
T0AEC 000:558.454 - 0.016ms returns 0x06
T0AEC 000:558.459 JLINK_GetNumBPUnits(Type = 0xF0)
T0AEC 000:558.463 - 0.003ms returns 0x2000
T0AEC 000:558.467 JLINK_GetNumWPUnits()
T0AEC 000:558.470 - 0.003ms returns 4
T0AEC 000:575.266 JLINK_GetSpeed()
T0AEC 000:575.289 - 0.023ms returns 4000
T0AEC 000:582.820 JLINK_ReadMemU32(0xE000E004, 0x1 Items)
T0AEC 000:582.862   CPU_ReadMem(4 bytes @ 0xE000E004)
T0AEC 000:583.157   Data:  01 00 00 00
T0AEC 000:583.173 - 0.353ms returns 1 (0x1)
T0AEC 000:583.181 JLINK_ReadMemU32(0xE000E004, 0x1 Items)
T0AEC 000:583.189   CPU_ReadMem(4 bytes @ 0xE000E004)
T0AEC 000:583.478   Data:  01 00 00 00
T0AEC 000:583.489 - 0.307ms returns 1 (0x1)
T0AEC 000:583.497 JLINK_WriteMemEx(0xE0001000, 0x0000001C Bytes, Flags = 0x02000004)
T0AEC 000:583.502   Data:  01 00 00 00 00 00 00 00 00 00 00 00 00 00 00 00 ...
T0AEC 000:583.515   CPU_WriteMem(28 bytes @ 0xE0001000)
T0AEC 000:583.849 - 0.352ms returns 0x1C
T0AEC 000:583.862 JLINK_Halt()
T0AEC 000:583.866 - 0.004ms returns 0x00
T0AEC 000:583.871 JLINK_IsHalted()
T0AEC 000:583.876 - 0.004ms returns TRUE
T0AEC 000:589.421 JLINK_WriteMem(0x20000000, 0x164 Bytes, ...)
T0AEC 000:589.442   Data:  00 BE 0A E0 0D 78 2D 06 68 40 08 24 40 00 00 D3 ...
T0AEC 000:589.779   CPU_WriteMem(356 bytes @ 0x20000000)
T0AEC 000:591.334 - 1.913ms returns 0x164
T0AEC 000:591.378 JLINK_HasError()
T0AEC 000:591.385 JLINK_WriteReg(R0, 0x08000000)
T0AEC 000:591.392 - 0.007ms returns 0
T0AEC 000:591.397 JLINK_WriteReg(R1, 0x00B71B00)
T0AEC 000:591.401 - 0.003ms returns 0
T0AEC 000:591.405 JLINK_WriteReg(R2, 0x00000001)
T0AEC 000:591.409 - 0.003ms returns 0
T0AEC 000:591.415 JLINK_WriteReg(R3, 0x00000000)
T0AEC 000:591.419 - 0.003ms returns 0
T0AEC 000:591.423 JLINK_WriteReg(R4, 0x00000000)
T0AEC 000:591.427 - 0.003ms returns 0
T0AEC 000:591.431 JLINK_WriteReg(R5, 0x00000000)
T0AEC 000:591.435 - 0.003ms returns 0
T0AEC 000:591.443 JLINK_WriteReg(R6, 0x00000000)
T0AEC 000:591.449 - 0.006ms returns 0
T0AEC 000:591.453 JLINK_WriteReg(R7, 0x00000000)
T0AEC 000:591.457 - 0.003ms returns 0
T0AEC 000:591.658 JLINK_WriteReg(R8, 0x00000000)
T0AEC 000:591.673 - 0.211ms returns 0
T0AEC 000:591.687 JLINK_WriteReg(R9, 0x20000160)
T0AEC 000:591.690 - 0.003ms returns 0
T0AEC 000:591.694 JLINK_WriteReg(R10, 0x00000000)
T0AEC 000:591.697 - 0.003ms returns 0
T0AEC 000:591.701 JLINK_WriteReg(R11, 0x00000000)
T0AEC 000:591.704 - 0.003ms returns 0
T0AEC 000:591.708 JLINK_WriteReg(R12, 0x00000000)
T0AEC 000:591.711 - 0.003ms returns 0
T0AEC 000:591.715 JLINK_WriteReg(R13 (SP), 0x20001000)
T0AEC 000:591.719 - 0.004ms returns 0
T0AEC 000:591.722 JLINK_WriteReg(R14, 0x20000001)
T0AEC 000:591.725 - 0.003ms returns 0
T0AEC 000:591.732 JLINK_WriteReg(R15 (PC), 0x20000038)
T0AEC 000:591.735 - 0.005ms returns 0
T0AEC 000:591.739 JLINK_WriteReg(XPSR, 0x01000000)
T0AEC 000:591.742 - 0.003ms returns 0
T0AEC 000:591.745 JLINK_WriteReg(MSP, 0x20001000)
T0AEC 000:591.748 - 0.003ms returns 0
T0AEC 000:591.752 JLINK_WriteReg(PSP, 0x20001000)
T0AEC 000:591.755 - 0.003ms returns 0
T0AEC 000:591.759 JLINK_WriteReg(CFBP, 0x00000000)
T0AEC 000:591.762 - 0.003ms returns 0
T0AEC 000:591.766 JLINK_SetBPEx(Addr = 0x20000000, Type = 0xFFFFFFF2)
T0AEC 000:591.775   CPU_ReadMem(2 bytes @ 0x20000000)
T0AEC 000:592.035 - 0.268ms returns 0x00000001
T0AEC 000:592.041 JLINK_Go()
T0AEC 000:592.055   CPU_WriteMem(2 bytes @ 0x20000000)
T0AEC 000:592.386   CPU_ReadMem(4 bytes @ 0xE0001000)
T0AEC 000:592.613   CPU_WriteMem(4 bytes @ 0xE0002008)
T0AEC 000:592.618   CPU_WriteMem(4 bytes @ 0xE000200C)
T0AEC 000:592.626   CPU_WriteMem(4 bytes @ 0xE0002010)
T0AEC 000:592.631   CPU_WriteMem(4 bytes @ 0xE0002014)
T0AEC 000:592.635   CPU_WriteMem(4 bytes @ 0xE0002018)
T0AEC 000:592.640   CPU_WriteMem(4 bytes @ 0xE000201C)
T0AEC 000:593.656   CPU_WriteMem(4 bytes @ 0xE0001004)
T0AEC 000:599.655   Memory map 'after startup completion point' is active
T0AEC 000:599.682 - 7.640ms 
T0AEC 000:599.697 JLINK_IsHalted()
T0AEC 000:601.670   CPU_ReadMem(2 bytes @ 0x20000000)
T0AEC 000:601.944 - 2.246ms returns TRUE
T0AEC 000:601.955 JLINK_ReadReg(R15 (PC))
T0AEC 000:601.962 - 0.007ms returns 0x20000000
T0AEC 000:601.966 JLINK_ClrBPEx(BPHandle = 0x00000001)
T0AEC 000:601.970 - 0.004ms returns 0x00
T0AEC 000:601.974 JLINK_ReadReg(R0)
T0AEC 000:601.978 - 0.003ms returns 0x00000000
T0AEC 000:602.367 JLINK_HasError()
T0AEC 000:602.378 JLINK_WriteReg(R0, 0x08000000)
T0AEC 000:602.383 - 0.005ms returns 0
T0AEC 000:602.387 JLINK_WriteReg(R1, 0x00B71B00)
T0AEC 000:602.390 - 0.003ms returns 0
T0AEC 000:602.394 JLINK_WriteReg(R2, 0x00000001)
T0AEC 000:602.397 - 0.003ms returns 0
T0AEC 000:602.401 JLINK_WriteReg(R3, 0x00000000)
T0AEC 000:602.404 - 0.003ms returns 0
T0AEC 000:602.408 JLINK_WriteReg(R4, 0x00000000)
T0AEC 000:602.411 - 0.003ms returns 0
T0AEC 000:602.415 JLINK_WriteReg(R5, 0x00000000)
T0AEC 000:602.418 - 0.003ms returns 0
T0AEC 000:602.421 JLINK_WriteReg(R6, 0x00000000)
T0AEC 000:602.425 - 0.003ms returns 0
T0AEC 000:602.428 JLINK_WriteReg(R7, 0x00000000)
T0AEC 000:602.432 - 0.003ms returns 0
T0AEC 000:602.435 JLINK_WriteReg(R8, 0x00000000)
T0AEC 000:602.439 - 0.003ms returns 0
T0AEC 000:602.442 JLINK_WriteReg(R9, 0x20000160)
T0AEC 000:602.446 - 0.003ms returns 0
T0AEC 000:602.449 JLINK_WriteReg(R10, 0x00000000)
T0AEC 000:602.453 - 0.003ms returns 0
T0AEC 000:602.456 JLINK_WriteReg(R11, 0x00000000)
T0AEC 000:602.459 - 0.003ms returns 0
T0AEC 000:602.463 JLINK_WriteReg(R12, 0x00000000)
T0AEC 000:602.466 - 0.003ms returns 0
T0AEC 000:602.470 JLINK_WriteReg(R13 (SP), 0x20001000)
T0AEC 000:602.473 - 0.003ms returns 0
T0AEC 000:602.477 JLINK_WriteReg(R14, 0x20000001)
T0AEC 000:602.480 - 0.003ms returns 0
T0AEC 000:602.484 JLINK_WriteReg(R15 (PC), 0x2000007C)
T0AEC 000:602.487 - 0.003ms returns 0
T0AEC 000:602.491 JLINK_WriteReg(XPSR, 0x01000000)
T0AEC 000:602.494 - 0.003ms returns 0
T0AEC 000:602.498 JLINK_WriteReg(MSP, 0x20001000)
T0AEC 000:602.535 - 0.037ms returns 0
T0AEC 000:602.541 JLINK_WriteReg(PSP, 0x20001000)
T0AEC 000:602.544 - 0.003ms returns 0
T0AEC 000:602.547 JLINK_WriteReg(CFBP, 0x00000000)
T0AEC 000:602.551 - 0.003ms returns 0
T0AEC 000:602.555 JLINK_SetBPEx(Addr = 0x20000000, Type = 0xFFFFFFF2)
T0AEC 000:602.559 - 0.004ms returns 0x00000002
T0AEC 000:602.563 JLINK_Go()
T0AEC 000:602.574   CPU_ReadMem(4 bytes @ 0xE0001000)
T0AEC 000:604.789 - 2.225ms 
T0AEC 000:604.816 JLINK_IsHalted()
T0AEC 000:605.076 - 0.259ms returns FALSE
T0AEC 000:605.082 JLINK_HasError()
T0AEC 000:646.699 JLINK_IsHalted()
T0AEC 000:648.590   CPU_ReadMem(2 bytes @ 0x20000000)
T0AEC 000:648.839 - 2.139ms returns TRUE
T0AEC 000:648.845 JLINK_ReadReg(R15 (PC))
T0AEC 000:648.851 - 0.005ms returns 0x20000000
T0AEC 000:648.855 JLINK_ClrBPEx(BPHandle = 0x00000002)
T0AEC 000:648.860 - 0.005ms returns 0x00
T0AEC 000:648.864 JLINK_ReadReg(R0)
T0AEC 000:648.868 - 0.003ms returns 0x00000000
T0AEC 000:701.677 JLINK_HasError()
T0AEC 000:701.703 JLINK_WriteReg(R0, 0x00000001)
T0AEC 000:701.710 - 0.007ms returns 0
T0AEC 000:701.714 JLINK_WriteReg(R1, 0x00B71B00)
T0AEC 000:701.717 - 0.003ms returns 0
T0AEC 000:701.720 JLINK_WriteReg(R2, 0x00000001)
T0AEC 000:701.724 - 0.003ms returns 0
T0AEC 000:701.727 JLINK_WriteReg(R3, 0x00000000)
T0AEC 000:701.730 - 0.003ms returns 0
T0AEC 000:701.734 JLINK_WriteReg(R4, 0x00000000)
T0AEC 000:701.737 - 0.003ms returns 0
T0AEC 000:701.740 JLINK_WriteReg(R5, 0x00000000)
T0AEC 000:701.743 - 0.003ms returns 0
T0AEC 000:701.747 JLINK_WriteReg(R6, 0x00000000)
T0AEC 000:701.754 - 0.006ms returns 0
T0AEC 000:701.757 JLINK_WriteReg(R7, 0x00000000)
T0AEC 000:701.760 - 0.003ms returns 0
T0AEC 000:701.764 JLINK_WriteReg(R8, 0x00000000)
T0AEC 000:701.767 - 0.003ms returns 0
T0AEC 000:701.771 JLINK_WriteReg(R9, 0x20000160)
T0AEC 000:701.774 - 0.003ms returns 0
T0AEC 000:701.778 JLINK_WriteReg(R10, 0x00000000)
T0AEC 000:701.781 - 0.003ms returns 0
T0AEC 000:701.785 JLINK_WriteReg(R11, 0x00000000)
T0AEC 000:701.788 - 0.003ms returns 0
T0AEC 000:701.791 JLINK_WriteReg(R12, 0x00000000)
T0AEC 000:701.795 - 0.003ms returns 0
T0AEC 000:701.798 JLINK_WriteReg(R13 (SP), 0x20001000)
T0AEC 000:701.802 - 0.003ms returns 0
T0AEC 000:701.806 JLINK_WriteReg(R14, 0x20000001)
T0AEC 000:701.811 - 0.005ms returns 0
T0AEC 000:701.815 JLINK_WriteReg(R15 (PC), 0x2000006A)
T0AEC 000:701.818 - 0.003ms returns 0
T0AEC 000:701.821 JLINK_WriteReg(XPSR, 0x01000000)
T0AEC 000:701.825 - 0.003ms returns 0
T0AEC 000:701.828 JLINK_WriteReg(MSP, 0x20001000)
T0AEC 000:701.831 - 0.003ms returns 0
T0AEC 000:701.835 JLINK_WriteReg(PSP, 0x20001000)
T0AEC 000:701.838 - 0.003ms returns 0
T0AEC 000:701.842 JLINK_WriteReg(CFBP, 0x00000000)
T0AEC 000:701.845 - 0.003ms returns 0
T0AEC 000:701.849 JLINK_SetBPEx(Addr = 0x20000000, Type = 0xFFFFFFF2)
T0AEC 000:701.853 - 0.004ms returns 0x00000003
T0AEC 000:701.857 JLINK_Go()
T0AEC 000:701.875   CPU_ReadMem(4 bytes @ 0xE0001000)
T0AEC 000:704.157 - 2.298ms 
T0AEC 000:704.167 JLINK_IsHalted()
T0AEC 000:706.054   CPU_ReadMem(2 bytes @ 0x20000000)
T0AEC 000:706.337 - 2.170ms returns TRUE
T0AEC 000:706.342 JLINK_ReadReg(R15 (PC))
T0AEC 000:706.346 - 0.004ms returns 0x20000000
T0AEC 000:706.350 JLINK_ClrBPEx(BPHandle = 0x00000003)
T0AEC 000:706.354 - 0.003ms returns 0x00
T0AEC 000:706.358 JLINK_ReadReg(R0)
T0AEC 000:706.361 - 0.003ms returns 0x00000000
T0AEC 000:712.191 JLINK_WriteMem(0x20000000, 0x164 Bytes, ...)
T0AEC 000:712.200   Data:  00 BE 0A E0 0D 78 2D 06 68 40 08 24 40 00 00 D3 ...
T0AEC 000:712.212   CPU_WriteMem(356 bytes @ 0x20000000)
T0AEC 000:713.825 - 1.633ms returns 0x164
T0AEC 000:713.922 JLINK_HasError()
T0AEC 000:713.938 JLINK_WriteReg(R0, 0x08000000)
T0AEC 000:713.952 - 0.014ms returns 0
T0AEC 000:713.966 JLINK_WriteReg(R1, 0x00B71B00)
T0AEC 000:713.976 - 0.010ms returns 0
T0AEC 000:713.988 JLINK_WriteReg(R2, 0x00000002)
T0AEC 000:713.999 - 0.010ms returns 0
T0AEC 000:714.010 JLINK_WriteReg(R3, 0x00000000)
T0AEC 000:714.021 - 0.010ms returns 0
T0AEC 000:714.042 JLINK_WriteReg(R4, 0x00000000)
T0AEC 000:714.058 - 0.016ms returns 0
T0AEC 000:714.070 JLINK_WriteReg(R5, 0x00000000)
T0AEC 000:714.080 - 0.010ms returns 0
T0AEC 000:714.092 JLINK_WriteReg(R6, 0x00000000)
T0AEC 000:714.102 - 0.010ms returns 0
T0AEC 000:714.114 JLINK_WriteReg(R7, 0x00000000)
T0AEC 000:714.124 - 0.010ms returns 0
T0AEC 000:714.136 JLINK_WriteReg(R8, 0x00000000)
T0AEC 000:714.146 - 0.010ms returns 0
T0AEC 000:714.158 JLINK_WriteReg(R9, 0x20000160)
T0AEC 000:714.168 - 0.010ms returns 0
T0AEC 000:714.180 JLINK_WriteReg(R10, 0x00000000)
T0AEC 000:714.190 - 0.010ms returns 0
T0AEC 000:714.202 JLINK_WriteReg(R11, 0x00000000)
T0AEC 000:714.213 - 0.010ms returns 0
T0AEC 000:714.225 JLINK_WriteReg(R12, 0x00000000)
T0AEC 000:714.235 - 0.010ms returns 0
T0AEC 000:714.247 JLINK_WriteReg(R13 (SP), 0x20001000)
T0AEC 000:714.258 - 0.011ms returns 0
T0AEC 000:714.270 JLINK_WriteReg(R14, 0x20000001)
T0AEC 000:714.280 - 0.010ms returns 0
T0AEC 000:714.294 JLINK_WriteReg(R15 (PC), 0x20000038)
T0AEC 000:714.305 - 0.010ms returns 0
T0AEC 000:714.317 JLINK_WriteReg(XPSR, 0x01000000)
T0AEC 000:714.327 - 0.010ms returns 0
T0AEC 000:714.340 JLINK_WriteReg(MSP, 0x20001000)
T0AEC 000:714.351 - 0.011ms returns 0
T0AEC 000:714.364 JLINK_WriteReg(PSP, 0x20001000)
T0AEC 000:714.375 - 0.011ms returns 0
T0AEC 000:714.388 JLINK_WriteReg(CFBP, 0x00000000)
T0AEC 000:714.399 - 0.011ms returns 0
T0AEC 000:714.413 JLINK_SetBPEx(Addr = 0x20000000, Type = 0xFFFFFFF2)
T0AEC 000:714.432   CPU_ReadMem(2 bytes @ 0x20000000)
T0AEC 000:714.782 - 0.368ms returns 0x00000004
T0AEC 000:714.833 JLINK_Go()
T0AEC 000:714.855   CPU_WriteMem(2 bytes @ 0x20000000)
T0AEC 000:715.220   CPU_ReadMem(4 bytes @ 0xE0001000)
T0AEC 000:717.409 - 2.574ms 
T0AEC 000:717.432 JLINK_IsHalted()
T0AEC 000:719.297   CPU_ReadMem(2 bytes @ 0x20000000)
T0AEC 000:719.719 - 2.285ms returns TRUE
T0AEC 000:719.755 JLINK_ReadReg(R15 (PC))
T0AEC 000:719.776 - 0.021ms returns 0x20000000
T0AEC 000:719.792 JLINK_ClrBPEx(BPHandle = 0x00000004)
T0AEC 000:719.805 - 0.013ms returns 0x00
T0AEC 000:719.820 JLINK_ReadReg(R0)
T0AEC 000:719.833 - 0.012ms returns 0x00000000
T0AEC 000:723.027 JLINK_WriteMem(0x20000164, 0x29C Bytes, ...)
T0AEC 000:723.048   Data:  C0 11 00 20 09 31 00 08 A7 41 00 08 81 3F 00 08 ...
T0AEC 000:723.065   CPU_WriteMem(668 bytes @ 0x20000164)
T0AEC 000:725.615 - 2.588ms returns 0x29C
T0AEC 000:725.624 JLINK_WriteMem(0x20000400, 0x164 Bytes, ...)
T0AEC 000:725.627   Data:  0B 43 13 60 0D 4A 03 89 14 32 13 B1 04 E0 8B 43 ...
T0AEC 000:725.640   CPU_WriteMem(356 bytes @ 0x20000400)
T0AEC 000:727.237 - 1.610ms returns 0x164
T0AEC 000:727.292 JLINK_HasError()
T0AEC 000:727.321 JLINK_WriteReg(R0, 0x08003000)
T0AEC 000:727.325 - 0.004ms returns 0
T0AEC 000:727.329 JLINK_WriteReg(R1, 0x00000400)
T0AEC 000:727.332 - 0.003ms returns 0
T0AEC 000:727.336 JLINK_WriteReg(R2, 0x20000164)
T0AEC 000:727.339 - 0.003ms returns 0
T0AEC 000:727.343 JLINK_WriteReg(R3, 0x00000000)
T0AEC 000:727.346 - 0.003ms returns 0
T0AEC 000:727.349 JLINK_WriteReg(R4, 0x00000000)
T0AEC 000:727.352 - 0.003ms returns 0
T0AEC 000:727.356 JLINK_WriteReg(R5, 0x00000000)
T0AEC 000:727.359 - 0.003ms returns 0
T0AEC 000:727.363 JLINK_WriteReg(R6, 0x00000000)
T0AEC 000:727.366 - 0.003ms returns 0
T0AEC 000:727.370 JLINK_WriteReg(R7, 0x00000000)
T0AEC 000:727.373 - 0.003ms returns 0
T0AEC 000:727.376 JLINK_WriteReg(R8, 0x00000000)
T0AEC 000:727.379 - 0.003ms returns 0
T0AEC 000:727.383 JLINK_WriteReg(R9, 0x20000160)
T0AEC 000:727.386 - 0.003ms returns 0
T0AEC 000:727.390 JLINK_WriteReg(R10, 0x00000000)
T0AEC 000:727.393 - 0.003ms returns 0
T0AEC 000:727.397 JLINK_WriteReg(R11, 0x00000000)
T0AEC 000:727.400 - 0.003ms returns 0
T0AEC 000:727.403 JLINK_WriteReg(R12, 0x00000000)
T0AEC 000:727.406 - 0.003ms returns 0
T0AEC 000:727.410 JLINK_WriteReg(R13 (SP), 0x20001000)
T0AEC 000:727.417 - 0.006ms returns 0
T0AEC 000:727.432 JLINK_WriteReg(R14, 0x20000001)
T0AEC 000:727.445 - 0.012ms returns 0
T0AEC 000:727.461 JLINK_WriteReg(R15 (PC), 0x200000F4)
T0AEC 000:727.487 - 0.026ms returns 0
T0AEC 000:727.505 JLINK_WriteReg(XPSR, 0x01000000)
T0AEC 000:727.518 - 0.016ms returns 0
T0AEC 000:727.534 JLINK_WriteReg(MSP, 0x20001000)
T0AEC 000:727.547 - 0.013ms returns 0
T0AEC 000:727.562 JLINK_WriteReg(PSP, 0x20001000)
T0AEC 000:727.575 - 0.013ms returns 0
T0AEC 000:727.590 JLINK_WriteReg(CFBP, 0x00000000)
T0AEC 000:727.603 - 0.013ms returns 0
T0AEC 000:727.620 JLINK_SetBPEx(Addr = 0x20000000, Type = 0xFFFFFFF2)
T0AEC 000:727.635 - 0.016ms returns 0x00000005
T0AEC 000:727.650 JLINK_Go()
T0AEC 000:727.680   CPU_ReadMem(4 bytes @ 0xE0001000)
T0AEC 000:729.979 - 2.328ms 
T0AEC 000:729.992 JLINK_IsHalted()
T0AEC 000:730.231 - 0.238ms returns FALSE
T0AEC 000:730.237 JLINK_HasError()
T0AEC 000:734.913 JLINK_IsHalted()
T0AEC 000:735.370 - 0.457ms returns FALSE
T0AEC 000:735.382 JLINK_HasError()
T0AEC 000:737.237 JLINK_IsHalted()
T0AEC 000:737.530 - 0.295ms returns FALSE
T0AEC 000:737.538 JLINK_HasError()
T0AEC 000:739.253 JLINK_IsHalted()
T0AEC 000:739.517 - 0.265ms returns FALSE
T0AEC 000:739.526 JLINK_HasError()
T0AEC 000:745.938 JLINK_IsHalted()
T0AEC 000:746.227 - 0.289ms returns FALSE
T0AEC 000:746.241 JLINK_HasError()
T0AEC 000:748.099 JLINK_IsHalted()
T0AEC 000:748.392 - 0.295ms returns FALSE
T0AEC 000:748.398 JLINK_HasError()
T0AEC 000:750.151 JLINK_IsHalted()
T0AEC 000:750.574 - 0.422ms returns FALSE
T0AEC 000:750.597 JLINK_HasError()
T0AEC 000:752.609 JLINK_IsHalted()
T0AEC 000:752.946 - 0.339ms returns FALSE
T0AEC 000:752.951 JLINK_HasError()
T0AEC 000:754.775 JLINK_IsHalted()
T0AEC 000:755.076 - 0.302ms returns FALSE
T0AEC 000:755.095 JLINK_HasError()
T0AEC 000:756.948 JLINK_IsHalted()
T0AEC 000:757.301 - 0.352ms returns FALSE
T0AEC 000:757.322 JLINK_HasError()
T0AEC 000:759.160 JLINK_IsHalted()
T0AEC 000:759.578 - 0.416ms returns FALSE
T0AEC 000:759.598 JLINK_HasError()
T0AEC 000:761.274 JLINK_IsHalted()
T0AEC 000:763.289   CPU_ReadMem(2 bytes @ 0x20000000)
T0AEC 000:763.723 - 2.448ms returns TRUE
T0AEC 000:763.746 JLINK_ReadReg(R15 (PC))
T0AEC 000:763.766 - 0.020ms returns 0x20000000
T0AEC 000:763.784 JLINK_ClrBPEx(BPHandle = 0x00000005)
T0AEC 000:763.800 - 0.016ms returns 0x00
T0AEC 000:763.818 JLINK_ReadReg(R0)
T0AEC 000:763.832 - 0.015ms returns 0x00000000
T0AEC 000:765.307 JLINK_WriteMem(0x20000164, 0x29C Bytes, ...)
T0AEC 000:765.342   Data:  02 60 CA 7A 01 2A 02 68 28 D0 22 F0 04 02 02 60 ...
T0AEC 000:765.386   CPU_WriteMem(668 bytes @ 0x20000164)
T0AEC 000:767.963 - 2.657ms returns 0x29C
T0AEC 000:767.971 JLINK_WriteMem(0x20000400, 0x164 Bytes, ...)
T0AEC 000:767.975   Data:  77 BC 00 00 00 44 00 40 7F B5 00 24 12 4D 00 94 ...
T0AEC 000:767.984   CPU_WriteMem(356 bytes @ 0x20000400)
T0AEC 000:769.607 - 1.636ms returns 0x164
T0AEC 000:769.616 JLINK_HasError()
T0AEC 000:769.621 JLINK_WriteReg(R0, 0x08003400)
T0AEC 000:769.626 - 0.005ms returns 0
T0AEC 000:769.631 JLINK_WriteReg(R1, 0x00000400)
T0AEC 000:769.634 - 0.003ms returns 0
T0AEC 000:769.638 JLINK_WriteReg(R2, 0x20000164)
T0AEC 000:769.642 - 0.003ms returns 0
T0AEC 000:769.645 JLINK_WriteReg(R3, 0x00000000)
T0AEC 000:769.649 - 0.003ms returns 0
T0AEC 000:769.653 JLINK_WriteReg(R4, 0x00000000)
T0AEC 000:769.656 - 0.003ms returns 0
T0AEC 000:769.660 JLINK_WriteReg(R5, 0x00000000)
T0AEC 000:769.663 - 0.003ms returns 0
T0AEC 000:769.667 JLINK_WriteReg(R6, 0x00000000)
T0AEC 000:769.671 - 0.003ms returns 0
T0AEC 000:769.675 JLINK_WriteReg(R7, 0x00000000)
T0AEC 000:769.678 - 0.003ms returns 0
T0AEC 000:769.682 JLINK_WriteReg(R8, 0x00000000)
T0AEC 000:769.688 - 0.006ms returns 0
T0AEC 000:769.692 JLINK_WriteReg(R9, 0x20000160)
T0AEC 000:769.695 - 0.003ms returns 0
T0AEC 000:769.699 JLINK_WriteReg(R10, 0x00000000)
T0AEC 000:769.702 - 0.003ms returns 0
T0AEC 000:769.706 JLINK_WriteReg(R11, 0x00000000)
T0AEC 000:769.715 - 0.008ms returns 0
T0AEC 000:769.718 JLINK_WriteReg(R12, 0x00000000)
T0AEC 000:769.722 - 0.003ms returns 0
T0AEC 000:769.726 JLINK_WriteReg(R13 (SP), 0x20001000)
T0AEC 000:769.730 - 0.004ms returns 0
T0AEC 000:769.750 JLINK_WriteReg(R14, 0x20000001)
T0AEC 000:769.753 - 0.003ms returns 0
T0AEC 000:769.757 JLINK_WriteReg(R15 (PC), 0x200000F4)
T0AEC 000:769.761 - 0.003ms returns 0
T0AEC 000:769.766 JLINK_WriteReg(XPSR, 0x01000000)
T0AEC 000:769.769 - 0.003ms returns 0
T0AEC 000:769.774 JLINK_WriteReg(MSP, 0x20001000)
T0AEC 000:769.777 - 0.003ms returns 0
T0AEC 000:769.781 JLINK_WriteReg(PSP, 0x20001000)
T0AEC 000:769.785 - 0.003ms returns 0
T0AEC 000:769.789 JLINK_WriteReg(CFBP, 0x00000000)
T0AEC 000:769.793 - 0.003ms returns 0
T0AEC 000:769.797 JLINK_SetBPEx(Addr = 0x20000000, Type = 0xFFFFFFF2)
T0AEC 000:769.802 - 0.004ms returns 0x00000006
T0AEC 000:769.806 JLINK_Go()
T0AEC 000:769.816   CPU_ReadMem(4 bytes @ 0xE0001000)
T0AEC 000:771.993 - 2.180ms 
T0AEC 000:772.004 JLINK_IsHalted()
T0AEC 000:772.255 - 0.251ms returns FALSE
T0AEC 000:772.259 JLINK_HasError()
T0AEC 000:775.553 JLINK_IsHalted()
T0AEC 000:775.842 - 0.289ms returns FALSE
T0AEC 000:775.849 JLINK_HasError()
T0AEC 000:777.640 JLINK_IsHalted()
T0AEC 000:777.886 - 0.245ms returns FALSE
T0AEC 000:777.892 JLINK_HasError()
T0AEC 000:779.878 JLINK_IsHalted()
T0AEC 000:780.139 - 0.263ms returns FALSE
T0AEC 000:780.145 JLINK_HasError()
T0AEC 000:782.099 JLINK_IsHalted()
T0AEC 000:782.461 - 0.364ms returns FALSE
T0AEC 000:782.466 JLINK_HasError()
T0AEC 000:784.375 JLINK_IsHalted()
T0AEC 000:784.707 - 0.334ms returns FALSE
T0AEC 000:784.712 JLINK_HasError()
T0AEC 000:786.588 JLINK_IsHalted()
T0AEC 000:786.868 - 0.281ms returns FALSE
T0AEC 000:786.873 JLINK_HasError()
T0AEC 000:788.744 JLINK_IsHalted()
T0AEC 000:789.058 - 0.313ms returns FALSE
T0AEC 000:789.078 JLINK_HasError()
T0AEC 000:790.942 JLINK_IsHalted()
T0AEC 000:791.272 - 0.331ms returns FALSE
T0AEC 000:791.305 JLINK_HasError()
T0AEC 000:792.986 JLINK_IsHalted()
T0AEC 000:793.323 - 0.338ms returns FALSE
T0AEC 000:793.345 JLINK_HasError()
T0AEC 000:795.196 JLINK_IsHalted()
T0AEC 000:795.524 - 0.327ms returns FALSE
T0AEC 000:795.544 JLINK_HasError()
T0AEC 000:797.534 JLINK_IsHalted()
T0AEC 000:797.882 - 0.345ms returns FALSE
T0AEC 000:797.934 JLINK_HasError()
T0AEC 000:806.869 JLINK_IsHalted()
T0AEC 000:809.065   CPU_ReadMem(2 bytes @ 0x20000000)
T0AEC 000:809.362 - 2.494ms returns TRUE
T0AEC 000:809.368 JLINK_ReadReg(R15 (PC))
T0AEC 000:809.373 - 0.005ms returns 0x20000000
T0AEC 000:809.377 JLINK_ClrBPEx(BPHandle = 0x00000006)
T0AEC 000:809.381 - 0.003ms returns 0x00
T0AEC 000:809.385 JLINK_ReadReg(R0)
T0AEC 000:809.388 - 0.003ms returns 0x00000000
T0AEC 000:810.707 JLINK_WriteMem(0x20000164, 0x29C Bytes, ...)
T0AEC 000:810.747   Data:  C8 00 00 20 01 68 4F F6 FE 72 11 40 01 60 00 21 ...
T0AEC 000:810.791   CPU_WriteMem(668 bytes @ 0x20000164)
T0AEC 000:813.379 - 2.672ms returns 0x29C
T0AEC 000:813.407 JLINK_WriteMem(0x20000400, 0x164 Bytes, ...)
T0AEC 000:813.421   Data:  14 04 01 40 06 4A 01 46 00 20 12 68 04 4B 0A 40 ...
T0AEC 000:813.448   CPU_WriteMem(356 bytes @ 0x20000400)
T0AEC 000:815.039 - 1.631ms returns 0x164
T0AEC 000:815.062 JLINK_HasError()
T0AEC 000:815.082 JLINK_WriteReg(R0, 0x08003800)
T0AEC 000:815.100 - 0.018ms returns 0
T0AEC 000:815.118 JLINK_WriteReg(R1, 0x00000400)
T0AEC 000:815.133 - 0.015ms returns 0
T0AEC 000:815.150 JLINK_WriteReg(R2, 0x20000164)
T0AEC 000:815.164 - 0.014ms returns 0
T0AEC 000:815.181 JLINK_WriteReg(R3, 0x00000000)
T0AEC 000:815.195 - 0.014ms returns 0
T0AEC 000:815.211 JLINK_WriteReg(R4, 0x00000000)
T0AEC 000:815.226 - 0.014ms returns 0
T0AEC 000:815.242 JLINK_WriteReg(R5, 0x00000000)
T0AEC 000:815.263 - 0.020ms returns 0
T0AEC 000:815.286 JLINK_WriteReg(R6, 0x00000000)
T0AEC 000:815.303 - 0.016ms returns 0
T0AEC 000:815.418 JLINK_WriteReg(R7, 0x00000000)
T0AEC 000:815.436 - 0.018ms returns 0
T0AEC 000:815.453 JLINK_WriteReg(R8, 0x00000000)
T0AEC 000:815.467 - 0.014ms returns 0
T0AEC 000:815.484 JLINK_WriteReg(R9, 0x20000160)
T0AEC 000:815.498 - 0.014ms returns 0
T0AEC 000:815.516 JLINK_WriteReg(R10, 0x00000000)
T0AEC 000:815.530 - 0.014ms returns 0
T0AEC 000:815.679 JLINK_WriteReg(R11, 0x00000000)
T0AEC 000:815.704 - 0.024ms returns 0
T0AEC 000:815.721 JLINK_WriteReg(R12, 0x00000000)
T0AEC 000:815.735 - 0.014ms returns 0
T0AEC 000:815.752 JLINK_WriteReg(R13 (SP), 0x20001000)
T0AEC 000:815.768 - 0.016ms returns 0
T0AEC 000:815.785 JLINK_WriteReg(R14, 0x20000001)
T0AEC 000:815.799 - 0.014ms returns 0
T0AEC 000:815.817 JLINK_WriteReg(R15 (PC), 0x200000F4)
T0AEC 000:815.831 - 0.015ms returns 0
T0AEC 000:815.848 JLINK_WriteReg(XPSR, 0x01000000)
T0AEC 000:815.863 - 0.014ms returns 0
T0AEC 000:815.880 JLINK_WriteReg(MSP, 0x20001000)
T0AEC 000:815.894 - 0.014ms returns 0
T0AEC 000:815.911 JLINK_WriteReg(PSP, 0x20001000)
T0AEC 000:815.925 - 0.014ms returns 0
T0AEC 000:815.942 JLINK_WriteReg(CFBP, 0x00000000)
T0AEC 000:815.956 - 0.014ms returns 0
T0AEC 000:815.975 JLINK_SetBPEx(Addr = 0x20000000, Type = 0xFFFFFFF2)
T0AEC 000:815.993 - 0.018ms returns 0x00000007
T0AEC 000:816.010 JLINK_Go()
T0AEC 000:816.043   CPU_ReadMem(4 bytes @ 0xE0001000)
T0AEC 000:818.371 - 2.359ms 
T0AEC 000:818.416 JLINK_IsHalted()
T0AEC 000:818.770 - 0.353ms returns FALSE
T0AEC 000:818.792 JLINK_HasError()
T0AEC 000:820.926 JLINK_IsHalted()
T0AEC 000:821.230 - 0.304ms returns FALSE
T0AEC 000:821.251 JLINK_HasError()
T0AEC 000:823.058 JLINK_IsHalted()
T0AEC 000:823.375 - 0.316ms returns FALSE
T0AEC 000:823.395 JLINK_HasError()
T0AEC 000:825.184 JLINK_IsHalted()
T0AEC 000:825.480 - 0.295ms returns FALSE
T0AEC 000:825.488 JLINK_HasError()
T0AEC 000:827.390 JLINK_IsHalted()
T0AEC 000:827.840 - 0.452ms returns FALSE
T0AEC 000:827.847 JLINK_HasError()
T0AEC 000:834.122 JLINK_IsHalted()
T0AEC 000:834.568 - 0.445ms returns FALSE
T0AEC 000:834.582 JLINK_HasError()
T0AEC 000:836.293 JLINK_IsHalted()
T0AEC 000:836.621 - 0.328ms returns FALSE
T0AEC 000:836.652 JLINK_HasError()
T0AEC 000:838.438 JLINK_IsHalted()
T0AEC 000:838.735 - 0.297ms returns FALSE
T0AEC 000:838.756 JLINK_HasError()
T0AEC 000:840.596 JLINK_IsHalted()
T0AEC 000:841.010 - 0.413ms returns FALSE
T0AEC 000:841.046 JLINK_HasError()
T0AEC 000:842.880 JLINK_IsHalted()
T0AEC 000:843.185 - 0.304ms returns FALSE
T0AEC 000:843.195 JLINK_HasError()
T0AEC 000:850.563 JLINK_IsHalted()
T0AEC 000:852.820   CPU_ReadMem(2 bytes @ 0x20000000)
T0AEC 000:853.156 - 2.591ms returns TRUE
T0AEC 000:853.209 JLINK_ReadReg(R15 (PC))
T0AEC 000:853.229 - 0.020ms returns 0x20000000
T0AEC 000:853.246 JLINK_ClrBPEx(BPHandle = 0x00000007)
T0AEC 000:853.261 - 0.015ms returns 0x00
T0AEC 000:853.277 JLINK_ReadReg(R0)
T0AEC 000:853.290 - 0.013ms returns 0x00000000
T0AEC 000:854.510 JLINK_WriteMem(0x20000164, 0x29C Bytes, ...)
T0AEC 000:854.545   Data:  02 20 70 47 C9 68 C9 06 FB D5 03 20 70 47 00 00 ...
T0AEC 000:854.587   CPU_WriteMem(668 bytes @ 0x20000164)
T0AEC 000:857.310 - 2.801ms returns 0x29C
T0AEC 000:857.326 JLINK_WriteMem(0x20000400, 0x164 Bytes, ...)
T0AEC 000:857.330   Data:  F0 BD 62 60 F0 BD 00 00 00 00 01 40 02 46 00 20 ...
T0AEC 000:857.342   CPU_WriteMem(356 bytes @ 0x20000400)
T0AEC 000:858.941 - 1.612ms returns 0x164
T0AEC 000:858.955 JLINK_HasError()
T0AEC 000:858.960 JLINK_WriteReg(R0, 0x08003C00)
T0AEC 000:858.966 - 0.005ms returns 0
T0AEC 000:858.972 JLINK_WriteReg(R1, 0x00000400)
T0AEC 000:858.975 - 0.003ms returns 0
T0AEC 000:858.979 JLINK_WriteReg(R2, 0x20000164)
T0AEC 000:858.982 - 0.003ms returns 0
T0AEC 000:858.986 JLINK_WriteReg(R3, 0x00000000)
T0AEC 000:858.989 - 0.003ms returns 0
T0AEC 000:858.993 JLINK_WriteReg(R4, 0x00000000)
T0AEC 000:858.996 - 0.003ms returns 0
T0AEC 000:858.999 JLINK_WriteReg(R5, 0x00000000)
T0AEC 000:859.002 - 0.003ms returns 0
T0AEC 000:859.006 JLINK_WriteReg(R6, 0x00000000)
T0AEC 000:859.009 - 0.003ms returns 0
T0AEC 000:859.013 JLINK_WriteReg(R7, 0x00000000)
T0AEC 000:859.016 - 0.003ms returns 0
T0AEC 000:859.019 JLINK_WriteReg(R8, 0x00000000)
T0AEC 000:859.022 - 0.003ms returns 0
T0AEC 000:859.026 JLINK_WriteReg(R9, 0x20000160)
T0AEC 000:859.029 - 0.003ms returns 0
T0AEC 000:859.033 JLINK_WriteReg(R10, 0x00000000)
T0AEC 000:859.036 - 0.003ms returns 0
T0AEC 000:859.046 JLINK_WriteReg(R11, 0x00000000)
T0AEC 000:859.049 - 0.003ms returns 0
T0AEC 000:859.052 JLINK_WriteReg(R12, 0x00000000)
T0AEC 000:859.057 - 0.004ms returns 0
T0AEC 000:859.061 JLINK_WriteReg(R13 (SP), 0x20001000)
T0AEC 000:859.064 - 0.003ms returns 0
T0AEC 000:859.068 JLINK_WriteReg(R14, 0x20000001)
T0AEC 000:859.071 - 0.003ms returns 0
T0AEC 000:859.075 JLINK_WriteReg(R15 (PC), 0x200000F4)
T0AEC 000:859.078 - 0.003ms returns 0
T0AEC 000:859.082 JLINK_WriteReg(XPSR, 0x01000000)
T0AEC 000:859.085 - 0.003ms returns 0
T0AEC 000:859.089 JLINK_WriteReg(MSP, 0x20001000)
T0AEC 000:859.092 - 0.003ms returns 0
T0AEC 000:859.095 JLINK_WriteReg(PSP, 0x20001000)
T0AEC 000:859.098 - 0.003ms returns 0
T0AEC 000:859.102 JLINK_WriteReg(CFBP, 0x00000000)
T0AEC 000:859.105 - 0.003ms returns 0
T0AEC 000:859.109 JLINK_SetBPEx(Addr = 0x20000000, Type = 0xFFFFFFF2)
T0AEC 000:859.118 - 0.009ms returns 0x00000008
T0AEC 000:859.122 JLINK_Go()
T0AEC 000:859.132   CPU_ReadMem(4 bytes @ 0xE0001000)
T0AEC 000:861.146 - 2.023ms 
T0AEC 000:861.164 JLINK_IsHalted()
T0AEC 000:861.459 - 0.295ms returns FALSE
T0AEC 000:861.473 JLINK_HasError()
T0AEC 000:869.020 JLINK_IsHalted()
T0AEC 000:869.423 - 0.402ms returns FALSE
T0AEC 000:869.446 JLINK_HasError()
T0AEC 000:871.235 JLINK_IsHalted()
T0AEC 000:871.554 - 0.319ms returns FALSE
T0AEC 000:871.573 JLINK_HasError()
T0AEC 000:872.971 JLINK_IsHalted()
T0AEC 000:873.326 - 0.354ms returns FALSE
T0AEC 000:873.347 JLINK_HasError()
T0AEC 000:879.499 JLINK_IsHalted()
T0AEC 000:879.843 - 0.343ms returns FALSE
T0AEC 000:879.858 JLINK_HasError()
T0AEC 000:881.642 JLINK_IsHalted()
T0AEC 000:882.094 - 0.452ms returns FALSE
T0AEC 000:882.114 JLINK_HasError()
T0AEC 000:883.865 JLINK_IsHalted()
T0AEC 000:884.173 - 0.308ms returns FALSE
T0AEC 000:884.192 JLINK_HasError()
T0AEC 000:886.045 JLINK_IsHalted()
T0AEC 000:886.411 - 0.367ms returns FALSE
T0AEC 000:886.443 JLINK_HasError()
T0AEC 000:893.362 JLINK_IsHalted()
T0AEC 000:895.629   CPU_ReadMem(2 bytes @ 0x20000000)
T0AEC 000:895.948 - 2.586ms returns TRUE
T0AEC 000:895.967 JLINK_ReadReg(R15 (PC))
T0AEC 000:895.982 - 0.014ms returns 0x20000000
T0AEC 000:895.996 JLINK_ClrBPEx(BPHandle = 0x00000008)
T0AEC 000:896.008 - 0.011ms returns 0x00
T0AEC 000:896.021 JLINK_ReadReg(R0)
T0AEC 000:896.032 - 0.011ms returns 0x00000000
T0AEC 000:900.252 JLINK_WriteMem(0x20000164, 0x29C Bytes, ...)
T0AEC 000:900.271   Data:  BD E8 70 40 00 47 00 00 21 43 65 87 48 00 00 20 ...
T0AEC 000:900.285   CPU_WriteMem(668 bytes @ 0x20000164)
T0AEC 000:902.802 - 2.549ms returns 0x29C
T0AEC 000:902.821 JLINK_WriteMem(0x20000400, 0x164 Bytes, ...)
T0AEC 000:902.826   Data:  70 47 00 00 00 10 02 40 04 4A 00 29 11 69 01 D0 ...
T0AEC 000:902.842   CPU_WriteMem(356 bytes @ 0x20000400)
T0AEC 000:904.390 - 1.565ms returns 0x164
T0AEC 000:904.447 JLINK_HasError()
T0AEC 000:904.499 JLINK_WriteReg(R0, 0x08004000)
T0AEC 000:904.517 - 0.021ms returns 0
T0AEC 000:904.521 JLINK_WriteReg(R1, 0x00000400)
T0AEC 000:904.524 - 0.003ms returns 0
T0AEC 000:904.528 JLINK_WriteReg(R2, 0x20000164)
T0AEC 000:904.531 - 0.003ms returns 0
T0AEC 000:904.534 JLINK_WriteReg(R3, 0x00000000)
T0AEC 000:904.537 - 0.003ms returns 0
T0AEC 000:904.541 JLINK_WriteReg(R4, 0x00000000)
T0AEC 000:904.544 - 0.003ms returns 0
T0AEC 000:904.548 JLINK_WriteReg(R5, 0x00000000)
T0AEC 000:904.551 - 0.003ms returns 0
T0AEC 000:904.554 JLINK_WriteReg(R6, 0x00000000)
T0AEC 000:904.557 - 0.003ms returns 0
T0AEC 000:904.561 JLINK_WriteReg(R7, 0x00000000)
T0AEC 000:904.564 - 0.003ms returns 0
T0AEC 000:904.567 JLINK_WriteReg(R8, 0x00000000)
T0AEC 000:904.570 - 0.003ms returns 0
T0AEC 000:904.574 JLINK_WriteReg(R9, 0x20000160)
T0AEC 000:904.577 - 0.003ms returns 0
T0AEC 000:904.580 JLINK_WriteReg(R10, 0x00000000)
T0AEC 000:904.583 - 0.003ms returns 0
T0AEC 000:904.587 JLINK_WriteReg(R11, 0x00000000)
T0AEC 000:904.590 - 0.003ms returns 0
T0AEC 000:904.594 JLINK_WriteReg(R12, 0x00000000)
T0AEC 000:904.597 - 0.003ms returns 0
T0AEC 000:904.603 JLINK_WriteReg(R13 (SP), 0x20001000)
T0AEC 000:904.609 - 0.005ms returns 0
T0AEC 000:904.612 JLINK_WriteReg(R14, 0x20000001)
T0AEC 000:904.615 - 0.003ms returns 0
T0AEC 000:904.619 JLINK_WriteReg(R15 (PC), 0x200000F4)
T0AEC 000:904.622 - 0.003ms returns 0
T0AEC 000:904.626 JLINK_WriteReg(XPSR, 0x01000000)
T0AEC 000:904.629 - 0.003ms returns 0
T0AEC 000:904.632 JLINK_WriteReg(MSP, 0x20001000)
T0AEC 000:904.635 - 0.003ms returns 0
T0AEC 000:904.639 JLINK_WriteReg(PSP, 0x20001000)
T0AEC 000:904.642 - 0.003ms returns 0
T0AEC 000:904.646 JLINK_WriteReg(CFBP, 0x00000000)
T0AEC 000:904.649 - 0.003ms returns 0
T0AEC 000:904.653 JLINK_SetBPEx(Addr = 0x20000000, Type = 0xFFFFFFF2)
T0AEC 000:904.656 - 0.004ms returns 0x00000009
T0AEC 000:904.660 JLINK_Go()
T0AEC 000:904.668   CPU_ReadMem(4 bytes @ 0xE0001000)
T0AEC 000:906.945 - 2.283ms 
T0AEC 000:906.968 JLINK_IsHalted()
T0AEC 000:907.292 - 0.323ms returns FALSE
T0AEC 000:907.313 JLINK_HasError()
T0AEC 000:915.900 JLINK_IsHalted()
T0AEC 000:916.180 - 0.278ms returns FALSE
T0AEC 000:916.198 JLINK_HasError()
T0AEC 000:918.209 JLINK_IsHalted()
T0AEC 000:918.529 - 0.318ms returns FALSE
T0AEC 000:918.547 JLINK_HasError()
T0AEC 000:925.790 JLINK_IsHalted()
T0AEC 000:926.135 - 0.347ms returns FALSE
T0AEC 000:926.142 JLINK_HasError()
T0AEC 000:928.088 JLINK_IsHalted()
T0AEC 000:928.338 - 0.252ms returns FALSE
T0AEC 000:928.343 JLINK_HasError()
T0AEC 000:930.256 JLINK_IsHalted()
T0AEC 000:930.549 - 0.295ms returns FALSE
T0AEC 000:930.554 JLINK_HasError()
T0AEC 000:932.391 JLINK_IsHalted()
T0AEC 000:932.732 - 0.343ms returns FALSE
T0AEC 000:932.737 JLINK_HasError()
T0AEC 000:934.740 JLINK_IsHalted()
T0AEC 000:935.011 - 0.270ms returns FALSE
T0AEC 000:935.016 JLINK_HasError()
T0AEC 000:940.260 JLINK_IsHalted()
T0AEC 000:942.438   CPU_ReadMem(2 bytes @ 0x20000000)
T0AEC 000:942.761 - 2.501ms returns TRUE
T0AEC 000:942.785 JLINK_ReadReg(R15 (PC))
T0AEC 000:942.804 - 0.018ms returns 0x20000000
T0AEC 000:942.822 JLINK_ClrBPEx(BPHandle = 0x00000009)
T0AEC 000:942.837 - 0.015ms returns 0x00
T0AEC 000:942.854 JLINK_ReadReg(R0)
T0AEC 000:942.868 - 0.014ms returns 0x00000000
T0AEC 000:944.190 JLINK_WriteMem(0x20000164, 0x29C Bytes, ...)
T0AEC 000:944.221   Data:  07 F8 E1 B2 81 F3 11 88 BD E8 F0 81 08 09 00 20 ...
T0AEC 000:944.258   CPU_WriteMem(668 bytes @ 0x20000164)
T0AEC 000:946.766 - 2.574ms returns 0x29C
T0AEC 000:946.774 JLINK_WriteMem(0x20000400, 0x164 Bytes, ...)
T0AEC 000:946.777   Data:  00 72 20 49 FF F7 D4 FF 00 20 4F F6 FF 72 06 E0 ...
T0AEC 000:946.783   CPU_WriteMem(356 bytes @ 0x20000400)
T0AEC 000:948.360 - 1.585ms returns 0x164
T0AEC 000:948.381 JLINK_HasError()
T0AEC 000:948.400 JLINK_WriteReg(R0, 0x08004400)
T0AEC 000:948.416 - 0.017ms returns 0
T0AEC 000:948.432 JLINK_WriteReg(R1, 0x00000400)
T0AEC 000:948.446 - 0.013ms returns 0
T0AEC 000:948.462 JLINK_WriteReg(R2, 0x20000164)
T0AEC 000:948.475 - 0.013ms returns 0
T0AEC 000:948.490 JLINK_WriteReg(R3, 0x00000000)
T0AEC 000:948.503 - 0.013ms returns 0
T0AEC 000:948.518 JLINK_WriteReg(R4, 0x00000000)
T0AEC 000:948.531 - 0.013ms returns 0
T0AEC 000:948.548 JLINK_WriteReg(R5, 0x00000000)
T0AEC 000:948.561 - 0.013ms returns 0
T0AEC 000:948.576 JLINK_WriteReg(R6, 0x00000000)
T0AEC 000:948.588 - 0.013ms returns 0
T0AEC 000:948.604 JLINK_WriteReg(R7, 0x00000000)
T0AEC 000:948.616 - 0.013ms returns 0
T0AEC 000:948.632 JLINK_WriteReg(R8, 0x00000000)
T0AEC 000:948.645 - 0.013ms returns 0
T0AEC 000:948.660 JLINK_WriteReg(R9, 0x20000160)
T0AEC 000:948.673 - 0.013ms returns 0
T0AEC 000:948.688 JLINK_WriteReg(R10, 0x00000000)
T0AEC 000:948.701 - 0.013ms returns 0
T0AEC 000:948.716 JLINK_WriteReg(R11, 0x00000000)
T0AEC 000:948.729 - 0.012ms returns 0
T0AEC 000:948.744 JLINK_WriteReg(R12, 0x00000000)
T0AEC 000:948.757 - 0.013ms returns 0
T0AEC 000:948.773 JLINK_WriteReg(R13 (SP), 0x20001000)
T0AEC 000:948.787 - 0.015ms returns 0
T0AEC 000:948.802 JLINK_WriteReg(R14, 0x20000001)
T0AEC 000:948.815 - 0.013ms returns 0
T0AEC 000:948.831 JLINK_WriteReg(R15 (PC), 0x200000F4)
T0AEC 000:948.866 - 0.035ms returns 0
T0AEC 000:948.881 JLINK_WriteReg(XPSR, 0x01000000)
T0AEC 000:948.894 - 0.013ms returns 0
T0AEC 000:948.910 JLINK_WriteReg(MSP, 0x20001000)
T0AEC 000:948.923 - 0.013ms returns 0
T0AEC 000:948.939 JLINK_WriteReg(PSP, 0x20001000)
T0AEC 000:948.951 - 0.013ms returns 0
T0AEC 000:948.967 JLINK_WriteReg(CFBP, 0x00000000)
T0AEC 000:948.980 - 0.013ms returns 0
T0AEC 000:948.997 JLINK_SetBPEx(Addr = 0x20000000, Type = 0xFFFFFFF2)
T0AEC 000:949.179 - 0.182ms returns 0x0000000A
T0AEC 000:949.201 JLINK_Go()
T0AEC 000:949.235   CPU_ReadMem(4 bytes @ 0xE0001000)
T0AEC 000:951.544 - 2.343ms 
T0AEC 000:951.562 JLINK_IsHalted()
T0AEC 000:951.834 - 0.271ms returns FALSE
T0AEC 000:951.839 JLINK_HasError()
T0AEC 000:957.056 JLINK_IsHalted()
T0AEC 000:957.424 - 0.369ms returns FALSE
T0AEC 000:957.429 JLINK_HasError()
T0AEC 000:959.261 JLINK_IsHalted()
T0AEC 000:959.576 - 0.315ms returns FALSE
T0AEC 000:959.580 JLINK_HasError()
T0AEC 000:961.516 JLINK_IsHalted()
T0AEC 000:961.835 - 0.319ms returns FALSE
T0AEC 000:961.839 JLINK_HasError()
T0AEC 000:963.682 JLINK_IsHalted()
T0AEC 000:964.001 - 0.319ms returns FALSE
T0AEC 000:964.021 JLINK_HasError()
T0AEC 000:965.986 JLINK_IsHalted()
T0AEC 000:966.223 - 0.236ms returns FALSE
T0AEC 000:966.232 JLINK_HasError()
T0AEC 000:972.405 JLINK_IsHalted()
T0AEC 000:972.712 - 0.309ms returns FALSE
T0AEC 000:972.718 JLINK_HasError()
T0AEC 000:974.582 JLINK_IsHalted()
T0AEC 000:974.906 - 0.323ms returns FALSE
T0AEC 000:974.925 JLINK_HasError()
T0AEC 000:976.728 JLINK_IsHalted()
T0AEC 000:977.056 - 0.327ms returns FALSE
T0AEC 000:977.075 JLINK_HasError()
T0AEC 000:978.876 JLINK_IsHalted()
T0AEC 000:979.241 - 0.364ms returns FALSE
T0AEC 000:979.258 JLINK_HasError()
T0AEC 000:981.155 JLINK_IsHalted()
T0AEC 000:981.469 - 0.313ms returns FALSE
T0AEC 000:981.481 JLINK_HasError()
T0AEC 000:986.448 JLINK_IsHalted()
T0AEC 000:988.497   CPU_ReadMem(2 bytes @ 0x20000000)
T0AEC 000:988.863 - 2.416ms returns TRUE
T0AEC 000:988.889 JLINK_ReadReg(R15 (PC))
T0AEC 000:988.908 - 0.019ms returns 0x20000000
T0AEC 000:988.924 JLINK_ClrBPEx(BPHandle = 0x0000000A)
T0AEC 000:988.939 - 0.014ms returns 0x00
T0AEC 000:988.956 JLINK_ReadReg(R0)
T0AEC 000:988.970 - 0.013ms returns 0x00000000
T0AEC 000:990.305 JLINK_WriteMem(0x20000164, 0x29C Bytes, ...)
T0AEC 000:990.341   Data:  08 21 00 E0 10 21 48 46 FF F7 4E FB 5B A1 0A 23 ...
T0AEC 000:990.384   CPU_WriteMem(668 bytes @ 0x20000164)
T0AEC 000:992.883 - 2.578ms returns 0x29C
T0AEC 000:992.917 JLINK_WriteMem(0x20000400, 0x164 Bytes, ...)
T0AEC 000:992.931   Data:  00 22 0C E0 FF 22 00 21 00 20 02 E0 FF 22 03 E0 ...
T0AEC 000:992.967   CPU_WriteMem(356 bytes @ 0x20000400)
T0AEC 000:994.546 - 1.627ms returns 0x164
T0AEC 000:994.591 JLINK_HasError()
T0AEC 000:994.596 JLINK_WriteReg(R0, 0x08004800)
T0AEC 000:994.600 - 0.004ms returns 0
T0AEC 000:994.604 JLINK_WriteReg(R1, 0x00000400)
T0AEC 000:994.607 - 0.003ms returns 0
T0AEC 000:994.611 JLINK_WriteReg(R2, 0x20000164)
T0AEC 000:994.614 - 0.003ms returns 0
T0AEC 000:994.617 JLINK_WriteReg(R3, 0x00000000)
T0AEC 000:994.620 - 0.003ms returns 0
T0AEC 000:994.625 JLINK_WriteReg(R4, 0x00000000)
T0AEC 000:994.628 - 0.003ms returns 0
T0AEC 000:994.631 JLINK_WriteReg(R5, 0x00000000)
T0AEC 000:994.634 - 0.003ms returns 0
T0AEC 000:994.638 JLINK_WriteReg(R6, 0x00000000)
T0AEC 000:994.641 - 0.003ms returns 0
T0AEC 000:994.644 JLINK_WriteReg(R7, 0x00000000)
T0AEC 000:994.647 - 0.003ms returns 0
T0AEC 000:994.651 JLINK_WriteReg(R8, 0x00000000)
T0AEC 000:994.654 - 0.003ms returns 0
T0AEC 000:994.657 JLINK_WriteReg(R9, 0x20000160)
T0AEC 000:994.660 - 0.003ms returns 0
T0AEC 000:994.664 JLINK_WriteReg(R10, 0x00000000)
T0AEC 000:994.667 - 0.003ms returns 0
T0AEC 000:994.670 JLINK_WriteReg(R11, 0x00000000)
T0AEC 000:994.673 - 0.003ms returns 0
T0AEC 000:994.677 JLINK_WriteReg(R12, 0x00000000)
T0AEC 000:994.680 - 0.003ms returns 0
T0AEC 000:994.684 JLINK_WriteReg(R13 (SP), 0x20001000)
T0AEC 000:994.687 - 0.003ms returns 0
T0AEC 000:994.697 JLINK_WriteReg(R14, 0x20000001)
T0AEC 000:994.701 - 0.003ms returns 0
T0AEC 000:994.704 JLINK_WriteReg(R15 (PC), 0x200000F4)
T0AEC 000:994.707 - 0.003ms returns 0
T0AEC 000:994.711 JLINK_WriteReg(XPSR, 0x01000000)
T0AEC 000:994.714 - 0.003ms returns 0
T0AEC 000:994.718 JLINK_WriteReg(MSP, 0x20001000)
T0AEC 000:994.721 - 0.003ms returns 0
T0AEC 000:994.724 JLINK_WriteReg(PSP, 0x20001000)
T0AEC 000:994.727 - 0.003ms returns 0
T0AEC 000:994.731 JLINK_WriteReg(CFBP, 0x00000000)
T0AEC 000:994.734 - 0.003ms returns 0
T0AEC 000:994.739 JLINK_SetBPEx(Addr = 0x20000000, Type = 0xFFFFFFF2)
T0AEC 000:994.742 - 0.004ms returns 0x0000000B
T0AEC 000:994.746 JLINK_Go()
T0AEC 000:994.754   CPU_ReadMem(4 bytes @ 0xE0001000)
T0AEC 000:996.804 - 2.057ms 
T0AEC 000:996.816 JLINK_IsHalted()
T0AEC 000:997.034 - 0.217ms returns FALSE
T0AEC 000:997.042 JLINK_HasError()
T0AEC 001:002.405 JLINK_IsHalted()
T0AEC 001:002.879 - 0.473ms returns FALSE
T0AEC 001:002.902 JLINK_HasError()
T0AEC 001:004.731 JLINK_IsHalted()
T0AEC 001:005.068 - 0.336ms returns FALSE
T0AEC 001:005.087 JLINK_HasError()
T0AEC 001:007.146 JLINK_IsHalted()
T0AEC 001:007.500 - 0.353ms returns FALSE
T0AEC 001:007.520 JLINK_HasError()
T0AEC 001:009.226 JLINK_IsHalted()
T0AEC 001:009.550 - 0.326ms returns FALSE
T0AEC 001:009.567 JLINK_HasError()
T0AEC 001:011.464 JLINK_IsHalted()
T0AEC 001:011.932 - 0.461ms returns FALSE
T0AEC 001:012.012 JLINK_HasError()
T0AEC 001:017.696 JLINK_IsHalted()
T0AEC 001:018.126 - 0.429ms returns FALSE
T0AEC 001:018.148 JLINK_HasError()
T0AEC 001:020.231 JLINK_IsHalted()
T0AEC 001:020.614 - 0.380ms returns FALSE
T0AEC 001:020.665 JLINK_HasError()
T0AEC 001:022.264 JLINK_IsHalted()
T0AEC 001:022.510 - 0.246ms returns FALSE
T0AEC 001:022.515 JLINK_HasError()
T0AEC 001:024.380 JLINK_IsHalted()
T0AEC 001:024.707 - 0.327ms returns FALSE
